
T1718 000:054 SEGGER J-Link V6.16 Log File (0001ms, 0028ms total)
T1718 000:054 DLL Compiled: Jun  2 2017 17:45:04 (0001ms, 0028ms total)
T1718 000:054 Logging started @ 2017-12-10 21:02 (0001ms, 0028ms total)
T1718 000:055 JLINK_SetWarnOutHandler(...) (0000ms, 0028ms total)
T1718 000:055 JLINK_OpenEx(...)
Firmware: J-Link OB-STM32F072-CortexM compiled Mar  8 2020 11:15:54
Hardware: V1.00
Feature(s): GDB, RDI, FlashBP, FlashDL, JFlash, RDDIWEBSRV Webserver running on local port 19080 (0014ms, 0042ms total)
T1718 000:055   returns O.K. (0014ms, 0042ms total)
T1718 000:069 JLINK_SetErrorOutHandler(...) (0000ms, 0042ms total)
T1718 000:069 JLINK_ExecCommand("ProjectFile = "D:\00\F103DTU update-ts_server\F103DTU update-ts_server\MDK-ARM\JLinkSettings.ini"", ...). C:\Program Files (x86)\SEGGER\JLink_V616\JLinkDevices.xml evaluated successfully.  returns 0x00 (0088ms, 0130ms total)
T1718 000:159 JLINK_ExecCommand("Device = STM32F103RE", ...). Device "STM32F103RE" selected.  returns 0x00 (0003ms, 0133ms total)
T1718 000:162 JLINK_ExecCommand("DisableConnectionTimeout", ...).   returns 0x01 (0000ms, 0133ms total)
T1718 000:162 JLINK_GetHardwareVersion()  returns 0x2710 (0000ms, 0133ms total)
T1718 000:162 JLINK_GetDLLVersion()  returns 61600 (0000ms, 0133ms total)
T1718 000:162 JLINK_GetFirmwareString(...) (0000ms, 0133ms total)
T1718 000:166 JLINK_GetDLLVersion()  returns 61600 (0000ms, 0133ms total)
T1718 000:166 JLINK_GetCompileDateTime() (0000ms, 0133ms total)
T1718 000:168 JLINK_GetFirmwareString(...) (0000ms, 0133ms total)
T1718 000:169 JLINK_GetHardwareVersion()  returns 0x2710 (0000ms, 0133ms total)
T1718 000:174 JLINK_TIF_Select(JLINKARM_TIF_SWD)  returns 0x00 (0000ms, 0133ms total)
T1718 000:174 JLINK_SetSpeed(5000) (0000ms, 0133ms total)
T1718 000:174 JLINK_GetId() >0x10B TIF>Found SW-DP with ID 0x1BA01477 >0x0D TIF> >0x28 TIF> >0x0D TIF> >0x28 TIF> >0x0D TIF> >0x28 TIF> >0x0D TIF> >0x28 TIF> >0x0D TIF> >0x21 TIF> >0x0D TIF> >0x28 TIF> >0x0D TIF> >0x28 TIF> >0x0D TIF> >0x28 TIF> >0x0D TIF> >0x21 TIF> >0x0D TIF> >0x21 TIF> >0x0D TIF> >0x28 TIF> >0x0D TIF> >0x21 TIF> >0x0D TIF> >0x21 TIF> >0x0D TIF> >0x28 TIF> >0x0D TIF> >0x21 TIF> >0x0D TIF> >0x21 TIF> >0x0D TIF> >0x28 TIF> >0x0D TIF> >0x21 TIF> >0x0D TIF> >0x21 TIF> >0x0D TIF> >0x28 TIF>
 >0x0D TIF> >0x21 TIF> >0x0D TIF> >0x21 TIF> >0x0D TIF> >0x28 TIF> >0x0D TIF> >0x21 TIF> >0x0D TIF> >0x21 TIF> >0x0D TIF> >0x28 TIF> >0x0D TIF> >0x21 TIF> >0x0D TIF> >0x21 TIF> >0x10B TIF>Found SW-DP with ID 0x1BA01477 >0x0D TIF> >0x28 TIF> >0x0D TIF> >0x28 TIF> >0x0D TIF> >0x28 TIF> >0x0D TIF> >0x28 TIF> >0x0D TIF> >0x21 TIF> >0x0D TIF> >0x28 TIF>Scanning APs, stopping at first AHB-AP found. >0x0D TIF> >0x28 TIF> >0x0D TIF> >0x21 TIF> >0x0D TIF> >0x21 TIF>AP[0] IDR: 0x14770011 (AHB-AP) >0x0D TIF>
 >0x28 TIF> >0x0D TIF> >0x21 TIF> >0x0D TIF> >0x21 TIF>AHB-AP ROM: 0xE00FF000 (Base addr. of first ROM table) >0x0D TIF> >0x28 TIF> >0x0D TIF> >0x28 TIF> >0x0D TIF> >0x28 TIF> >0x0D TIF> >0x21 TIF> >0x0D TIF> >0x21 TIF> >0x0D TIF> >0x28 TIF> >0x0D TIF> >0x21 TIF> >0x0D TIF> >0x21 TIF>CPUID reg: 0x411FC231. Implementer code: 0x41 (ARM)Found Cortex-M3 r1p1, Little endian. -- CPU_ReadMem(4 bytes @ 0xE000EDF0) -- CPU_WriteMem(4 bytes @ 0xE000EDF0) -- CPU_ReadMem(4 bytes @ 0xE0002000)
FPUnit: 6 code (BP) slots and 2 literal slots -- CPU_ReadMem(4 bytes @ 0xE000EDFC) -- CPU_WriteMem(4 bytes @ 0xE000EDFC) -- CPU_ReadMem(4 bytes @ 0xE0001000) -- CPU_WriteMem(4 bytes @ 0xE0001000) -- CPU_ReadMem(4 bytes @ 0xE000ED88) -- CPU_WriteMem(4 bytes @ 0xE000ED88) -- CPU_ReadMem(4 bytes @ 0xE000ED88) -- CPU_WriteMem(4 bytes @ 0xE000ED88)CoreSight components:ROMTbl[0] @ E00FF000 -- CPU_ReadMem(16 bytes @ 0xE00FF000) -- CPU_ReadMem(16 bytes @ 0xE000EFF0) -- CPU_ReadMem(16 bytes @ 0xE000EFE0)
ROMTbl[0][0]: E000E000, CID: B105E00D, PID: 001BB000 SCS -- CPU_ReadMem(16 bytes @ 0xE0001FF0) -- CPU_ReadMem(16 bytes @ 0xE0001FE0)ROMTbl[0][1]: E0001000, CID: B105E00D, PID: 001BB002 DWT -- CPU_ReadMem(16 bytes @ 0xE0002FF0) -- CPU_ReadMem(16 bytes @ 0xE0002FE0)ROMTbl[0][2]: E0002000, CID: B105E00D, PID: 000BB003 FPB -- CPU_ReadMem(16 bytes @ 0xE0000FF0) -- CPU_ReadMem(16 bytes @ 0xE0000FE0)ROMTbl[0][3]: E0000000, CID: B105E00D, PID: 001BB001 ITM -- CPU_ReadMem(16 bytes @ 0xE00FF010)
 -- CPU_ReadMem(16 bytes @ 0xE0040FF0) -- CPU_ReadMem(16 bytes @ 0xE0040FE0)ROMTbl[0][4]: E0040000, CID: B105900D, PID: 001BB923 TPIU-Lite -- CPU_ReadMem(16 bytes @ 0xE0041FF0) -- CPU_ReadMem(16 bytes @ 0xE0041FE0)ROMTbl[0][5]: E0041000, CID: B105900D, PID: 101BB924 ETM-M3 >0x0D TIF> >0x21 TIF>  returns 0x1BA01477 (0066ms, 0199ms total)
T1718 000:240 JLINK_GetDLLVersion()  returns 61600 (0000ms, 0199ms total)
T1718 000:240 JLINK_CORE_GetFound()  returns 0x30000FF (0000ms, 0199ms total)
T1718 000:240 JLINK_GetDebugInfo(0x100 = JLINKARM_ROM_TABLE_ADDR_INDEX) -- Value=0xE00FF000  returns 0x00 (0000ms, 0199ms total)
T1718 000:242 JLINK_GetDebugInfo(0x100 = JLINKARM_ROM_TABLE_ADDR_INDEX) -- Value=0xE00FF000  returns 0x00 (0000ms, 0199ms total)
T1718 000:242 JLINK_GetDebugInfo(0x101 = JLINKARM_DEBUG_INFO_ETM_ADDR_INDEX) -- Value=0xE0041000  returns 0x00 (0000ms, 0199ms total)
T1718 000:242 JLINK_GetDebugInfo(0x102 = JLINKARM_DEBUG_INFO_MTB_ADDR_INDEX) -- Value=0x00000000  returns 0x00 (0000ms, 0199ms total)
T1718 000:242 JLINK_GetDebugInfo(0x103 = JLINKARM_DEBUG_INFO_TPIU_ADDR_INDEX) -- Value=0xE0040000  returns 0x00 (0000ms, 0199ms total)
T1718 000:242 JLINK_GetDebugInfo(0x104 = JLINKARM_DEBUG_INFO_ITM_ADDR_INDEX) -- Value=0xE0000000  returns 0x00 (0000ms, 0199ms total)
T1718 000:242 JLINK_GetDebugInfo(0x105 = JLINKARM_DEBUG_INFO_DWT_ADDR_INDEX) -- Value=0xE0001000  returns 0x00 (0000ms, 0199ms total)
T1718 000:242 JLINK_GetDebugInfo(0x106 = JLINKARM_DEBUG_INFO_FPB_ADDR_INDEX) -- Value=0xE0002000  returns 0x00 (0000ms, 0199ms total)
T1718 000:242 JLINK_GetDebugInfo(0x107 = JLINKARM_DEBUG_INFO_NVIC_ADDR_INDEX) -- Value=0xE000E000  returns 0x00 (0000ms, 0199ms total)
T1718 000:242 JLINK_GetDebugInfo(0x10C = JLINKARM_DEBUG_INFO_DBG_ADDR_INDEX) -- Value=0xE000EDF0  returns 0x00 (0000ms, 0199ms total)
T1718 000:242 JLINK_ReadMemU32(0xE000ED00, 0x0001 Items, ...) -- CPU_ReadMem(4 bytes @ 0xE000ED00) - Data: 31 C2 1F 41  returns 0x01 (0001ms, 0200ms total)
T1718 000:243 JLINK_SetResetType(JLINKARM_CM3_RESET_TYPE_NORMAL)  returns JLINKARM_CM3_RESET_TYPE_NORMAL (0000ms, 0200ms total)
T1718 000:243 JLINK_Reset() -- CPU is running -- CPU_WriteMem(4 bytes @ 0xE000EDF0) -- CPU is running -- CPU_WriteMem(4 bytes @ 0xE000EDFC) >0x35 TIF>Setting AIRCR.SYSRESETREQ -- CPU is running -- CPU_WriteMem(4 bytes @ 0xE000ED0C) >0x0D TIF> >0x28 TIF> -- CPU_ReadMem(4 bytes @ 0xE000ED0C) -- CPU_ReadMem(4 bytes @ 0xE000EDF0) -- CPU_ReadMem(4 bytes @ 0xE000EDF0) -- CPU_ReadMem(4 bytes @ 0xE000EDF0) -- CPU is running -- CPU_WriteMem(4 bytes @ 0xE000EDF0) -- CPU is running
 -- CPU_WriteMem(4 bytes @ 0xE000EDFC) -- CPU_ReadMem(4 bytes @ 0xE000EDF0) -- CPU_WriteMem(4 bytes @ 0xE0002000) -- CPU_ReadMem(4 bytes @ 0xE000EDFC) -- CPU_ReadMem(4 bytes @ 0xE0001000) (0073ms, 0273ms total)
T1718 000:316 JLINK_Halt()  returns 0x00 (0000ms, 0273ms total)
T1718 000:316 JLINK_IsHalted()  returns TRUE (0000ms, 0273ms total)
T1718 000:316 JLINK_ReadMemU32(0xE000EDF0, 0x0001 Items, ...) -- CPU_ReadMem(4 bytes @ 0xE000EDF0) - Data: 03 00 03 00  returns 0x01 (0001ms, 0274ms total)
T1718 000:317 JLINK_WriteU32(0xE000EDF0, 0xA05F0003) -- CPU_WriteMem(4 bytes @ 0xE000EDF0)  returns 0x00 (0001ms, 0275ms total)
T1718 000:318 JLINK_WriteU32(0xE000EDFC, 0x01000000) -- CPU_WriteMem(4 bytes @ 0xE000EDFC)  returns 0x00 (0001ms, 0276ms total)
T1718 000:325 JLINK_GetHWStatus(...)  returns 0x00 (0001ms, 0277ms total)
T1718 000:330 JLINK_GetNumBPUnits(Type = 0xFFFFFF00)  returns 0x06 (0000ms, 0277ms total)
T1718 000:330 JLINK_GetNumBPUnits(Type = 0xF0)  returns 0x2000 (0000ms, 0277ms total)
T1718 000:330 JLINK_GetNumWPUnits()  returns 0x04 (0000ms, 0277ms total)
T1718 000:334 JLINK_GetSpeed()  returns 0x7D0 (0000ms, 0277ms total)
T1718 000:338 JLINK_ReadMemU32(0xE000E004, 0x0001 Items, ...) -- CPU_ReadMem(4 bytes @ 0xE000E004) - Data: 01 00 00 00  returns 0x01 (0000ms, 0277ms total)
T1718 000:338 JLINK_ReadMemU32(0xE000E004, 0x0001 Items, ...) -- CPU_ReadMem(4 bytes @ 0xE000E004) - Data: 01 00 00 00  returns 0x01 (0001ms, 0278ms total)
T1718 000:339 JLINK_WriteMem(0xE0001000, 0x001C Bytes, ...) - Data: 01 00 00 00 00 00 00 00 00 00 00 00 00 00 00 00 ... -- CPU_WriteMem(28 bytes @ 0xE0001000)  returns 0x1C (0001ms, 0279ms total)
T1718 000:340 JLINK_ReadMem (0xE0001000, 0x001C Bytes, ...) -- CPU_ReadMem(28 bytes @ 0xE0001000) - Data: 01 00 00 40 00 00 00 00 00 00 00 00 00 00 00 00 ...  returns 0x00 (0001ms, 0280ms total)
T1718 000:341 JLINK_Halt()  returns 0x00 (0000ms, 0280ms total)
T1718 000:341 JLINK_IsHalted()  returns TRUE (0000ms, 0280ms total)
T1718 000:342 JLINK_WriteMem(0x20000000, 0x0164 Bytes, ...) - Data: 00 BE 0A E0 0D 78 2D 06 68 40 08 24 40 00 00 D3 ... -- CPU_WriteMem(356 bytes @ 0x20000000)  returns 0x164 (0005ms, 0285ms total)
T1718 000:347 JLINK_WriteReg(R0, 0x08000000)  returns 0x00 (0000ms, 0285ms total)
T1718 000:347 JLINK_WriteReg(R1, 0x044AA200)  returns 0x00 (0000ms, 0285ms total)
T1718 000:347 JLINK_WriteReg(R2, 0x00000001)  returns 0x00 (0000ms, 0285ms total)
T1718 000:347 JLINK_WriteReg(R3, 0x00000000)  returns 0x00 (0000ms, 0285ms total)
T1718 000:347 JLINK_WriteReg(R4, 0x00000000)  returns 0x00 (0000ms, 0285ms total)
T1718 000:347 JLINK_WriteReg(R5, 0x00000000)  returns 0x00 (0000ms, 0285ms total)
T1718 000:347 JLINK_WriteReg(R6, 0x00000000)  returns 0x00 (0000ms, 0285ms total)
T1718 000:347 JLINK_WriteReg(R7, 0x00000000)  returns 0x00 (0000ms, 0285ms total)
T1718 000:347 JLINK_WriteReg(R8, 0x00000000)  returns 0x00 (0000ms, 0285ms total)
T1718 000:347 JLINK_WriteReg(R9, 0x20000160)  returns 0x00 (0000ms, 0285ms total)
T1718 000:347 JLINK_WriteReg(R10, 0x00000000)  returns 0x00 (0000ms, 0285ms total)
T1718 000:347 JLINK_WriteReg(R11, 0x00000000)  returns 0x00 (0000ms, 0285ms total)
T1718 000:347 JLINK_WriteReg(R12, 0x00000000)  returns 0x00 (0000ms, 0285ms total)
T1718 000:347 JLINK_WriteReg(R13 (SP), 0x20001000)  returns 0x00 (0000ms, 0285ms total)
T1718 000:347 JLINK_WriteReg(R14, 0x20000001)  returns 0x00 (0000ms, 0285ms total)
T1718 000:347 JLINK_WriteReg(R15 (PC), 0x20000038)  returns 0x00 (0000ms, 0285ms total)
T1718 000:347 JLINK_WriteReg(XPSR, 0x01000000)  returns 0x00 (0000ms, 0285ms total)
T1718 000:347 JLINK_WriteReg(MSP, 0x20001000)  returns 0x00 (0000ms, 0285ms total)
T1718 000:347 JLINK_WriteReg(PSP, 0x20001000)  returns 0x00 (0000ms, 0285ms total)
T1718 000:347 JLINK_WriteReg(CFBP, 0x00000000)  returns 0x00 (0000ms, 0285ms total)
T1718 000:347 JLINK_SetBPEx(Addr = 0x20000000, Type = 0xFFFFFFF2) -- CPU_ReadMem(2 bytes @ 0x20000000)  returns 0x00000001 (0001ms, 0286ms total)
T1718 000:348 JLINK_Go() -- CPU_WriteMem(2 bytes @ 0x20000000) -- CPU_ReadMem(4 bytes @ 0xE0001000) -- CPU_WriteMem(4 bytes @ 0xE0002008) -- CPU_WriteMem(4 bytes @ 0xE000200C) -- CPU_WriteMem(4 bytes @ 0xE0002010) -- CPU_WriteMem(4 bytes @ 0xE0002014) -- CPU_WriteMem(4 bytes @ 0xE0002018) -- CPU_WriteMem(4 bytes @ 0xE000201C) -- CPU_WriteMem(4 bytes @ 0xE0001004) (0007ms, 0293ms total)
T1718 000:355 JLINK_IsHalted() -- CPU_ReadMem(2 bytes @ 0x20000000)  returns TRUE (0005ms, 0298ms total)
T1718 000:360 JLINK_ReadReg(R15 (PC))  returns 0x20000000 (0000ms, 0293ms total)
T1718 000:360 JLINK_ClrBPEx(BPHandle = 0x00000001)  returns 0x00 (0000ms, 0293ms total)
T1718 000:360 JLINK_ReadReg(R0)  returns 0x00000000 (0000ms, 0293ms total)
T1718 000:361 JLINK_WriteReg(R0, 0x08000000)  returns 0x00 (0000ms, 0293ms total)
T1718 000:361 JLINK_WriteReg(R1, 0x044AA200)  returns 0x00 (0000ms, 0293ms total)
T1718 000:361 JLINK_WriteReg(R2, 0x00000001)  returns 0x00 (0000ms, 0293ms total)
T1718 000:361 JLINK_WriteReg(R3, 0x00000000)  returns 0x00 (0000ms, 0293ms total)
T1718 000:361 JLINK_WriteReg(R4, 0x00000000)  returns 0x00 (0000ms, 0293ms total)
T1718 000:361 JLINK_WriteReg(R5, 0x00000000)  returns 0x00 (0000ms, 0293ms total)
T1718 000:361 JLINK_WriteReg(R6, 0x00000000)  returns 0x00 (0000ms, 0293ms total)
T1718 000:361 JLINK_WriteReg(R7, 0x00000000)  returns 0x00 (0000ms, 0293ms total)
T1718 000:361 JLINK_WriteReg(R8, 0x00000000)  returns 0x00 (0000ms, 0293ms total)
T1718 000:361 JLINK_WriteReg(R9, 0x20000160)  returns 0x00 (0000ms, 0293ms total)
T1718 000:361 JLINK_WriteReg(R10, 0x00000000)  returns 0x00 (0000ms, 0293ms total)
T1718 000:361 JLINK_WriteReg(R11, 0x00000000)  returns 0x00 (0000ms, 0293ms total)
T1718 000:361 JLINK_WriteReg(R12, 0x00000000)  returns 0x00 (0000ms, 0293ms total)
T1718 000:361 JLINK_WriteReg(R13 (SP), 0x20001000)  returns 0x00 (0000ms, 0293ms total)
T1718 000:361 JLINK_WriteReg(R14, 0x20000001)  returns 0x00 (0000ms, 0293ms total)
T1718 000:361 JLINK_WriteReg(R15 (PC), 0x2000007C)  returns 0x00 (0000ms, 0293ms total)
T1718 000:361 JLINK_WriteReg(XPSR, 0x01000000)  returns 0x00 (0000ms, 0293ms total)
T1718 000:361 JLINK_WriteReg(MSP, 0x20001000)  returns 0x00 (0000ms, 0293ms total)
T1718 000:361 JLINK_WriteReg(PSP, 0x20001000)  returns 0x00 (0000ms, 0293ms total)
T1718 000:361 JLINK_WriteReg(CFBP, 0x00000000)  returns 0x00 (0000ms, 0293ms total)
T1718 000:361 JLINK_SetBPEx(Addr = 0x20000000, Type = 0xFFFFFFF2)  returns 0x00000002 (0000ms, 0293ms total)
T1718 000:361 JLINK_Go() -- CPU_ReadMem(4 bytes @ 0xE0001000) (0002ms, 0295ms total)
T1718 000:363 JLINK_IsHalted()  returns FALSE (0001ms, 0296ms total)
T1718 000:409 JLINK_IsHalted() -- CPU_ReadMem(2 bytes @ 0x20000000)  returns TRUE (0005ms, 0300ms total)
T1718 000:414 JLINK_ReadReg(R15 (PC))  returns 0x20000000 (0000ms, 0295ms total)
T1718 000:414 JLINK_ClrBPEx(BPHandle = 0x00000002)  returns 0x00 (0000ms, 0295ms total)
T1718 000:414 JLINK_ReadReg(R0)  returns 0x00000000 (0000ms, 0295ms total)
T1718 000:466 JLINK_WriteReg(R0, 0x00000001)  returns 0x00 (0000ms, 0295ms total)
T1718 000:466 JLINK_WriteReg(R1, 0x044AA200)  returns 0x00 (0001ms, 0296ms total)
T1718 000:467 JLINK_WriteReg(R2, 0x00000001)  returns 0x00 (0000ms, 0296ms total)
T1718 000:467 JLINK_WriteReg(R3, 0x00000000)  returns 0x00 (0000ms, 0296ms total)
T1718 000:467 JLINK_WriteReg(R4, 0x00000000)  returns 0x00 (0000ms, 0296ms total)
T1718 000:467 JLINK_WriteReg(R5, 0x00000000)  returns 0x00 (0000ms, 0296ms total)
T1718 000:467 JLINK_WriteReg(R6, 0x00000000)  returns 0x00 (0000ms, 0296ms total)
T1718 000:467 JLINK_WriteReg(R7, 0x00000000)  returns 0x00 (0000ms, 0296ms total)
T1718 000:467 JLINK_WriteReg(R8, 0x00000000)  returns 0x00 (0000ms, 0296ms total)
T1718 000:467 JLINK_WriteReg(R9, 0x20000160)  returns 0x00 (0000ms, 0296ms total)
T1718 000:467 JLINK_WriteReg(R10, 0x00000000)  returns 0x00 (0000ms, 0296ms total)
T1718 000:467 JLINK_WriteReg(R11, 0x00000000)  returns 0x00 (0000ms, 0296ms total)
T1718 000:467 JLINK_WriteReg(R12, 0x00000000)  returns 0x00 (0000ms, 0296ms total)
T1718 000:467 JLINK_WriteReg(R13 (SP), 0x20001000)  returns 0x00 (0000ms, 0296ms total)
T1718 000:467 JLINK_WriteReg(R14, 0x20000001)  returns 0x00 (0000ms, 0296ms total)
T1718 000:467 JLINK_WriteReg(R15 (PC), 0x2000006A)  returns 0x00 (0000ms, 0296ms total)
T1718 000:467 JLINK_WriteReg(XPSR, 0x01000000)  returns 0x00 (0000ms, 0296ms total)
T1718 000:467 JLINK_WriteReg(MSP, 0x20001000)  returns 0x00 (0000ms, 0296ms total)
T1718 000:467 JLINK_WriteReg(PSP, 0x20001000)  returns 0x00 (0000ms, 0296ms total)
T1718 000:467 JLINK_WriteReg(CFBP, 0x00000000)  returns 0x00 (0000ms, 0296ms total)
T1718 000:467 JLINK_SetBPEx(Addr = 0x20000000, Type = 0xFFFFFFF2)  returns 0x00000003 (0000ms, 0296ms total)
T1718 000:467 JLINK_Go() -- CPU_ReadMem(4 bytes @ 0xE0001000) (0003ms, 0299ms total)
T1718 000:470 JLINK_IsHalted() -- CPU_ReadMem(2 bytes @ 0x20000000)  returns TRUE (0005ms, 0304ms total)
T1718 000:475 JLINK_ReadReg(R15 (PC))  returns 0x20000000 (0000ms, 0299ms total)
T1718 000:475 JLINK_ClrBPEx(BPHandle = 0x00000003)  returns 0x00 (0000ms, 0299ms total)
T1718 000:475 JLINK_ReadReg(R0)  returns 0x00000000 (0000ms, 0299ms total)
T1718 000:479 JLINK_WriteMem(0x20000000, 0x0164 Bytes, ...) - Data: 00 BE 0A E0 0D 78 2D 06 68 40 08 24 40 00 00 D3 ... -- CPU_WriteMem(356 bytes @ 0x20000000)  returns 0x164 (0004ms, 0303ms total)
T1718 000:483 JLINK_WriteReg(R0, 0x08000000)  returns 0x00 (0000ms, 0303ms total)
T1718 000:483 JLINK_WriteReg(R1, 0x044AA200)  returns 0x00 (0000ms, 0303ms total)
T1718 000:483 JLINK_WriteReg(R2, 0x00000002)  returns 0x00 (0000ms, 0303ms total)
T1718 000:483 JLINK_WriteReg(R3, 0x00000000)  returns 0x00 (0000ms, 0303ms total)
T1718 000:483 JLINK_WriteReg(R4, 0x00000000)  returns 0x00 (0000ms, 0303ms total)
T1718 000:483 JLINK_WriteReg(R5, 0x00000000)  returns 0x00 (0000ms, 0303ms total)
T1718 000:483 JLINK_WriteReg(R6, 0x00000000)  returns 0x00 (0000ms, 0303ms total)
T1718 000:483 JLINK_WriteReg(R7, 0x00000000)  returns 0x00 (0000ms, 0303ms total)
T1718 000:483 JLINK_WriteReg(R8, 0x00000000)  returns 0x00 (0000ms, 0303ms total)
T1718 000:483 JLINK_WriteReg(R9, 0x20000160)  returns 0x00 (0000ms, 0303ms total)
T1718 000:483 JLINK_WriteReg(R10, 0x00000000)  returns 0x00 (0000ms, 0303ms total)
T1718 000:483 JLINK_WriteReg(R11, 0x00000000)  returns 0x00 (0000ms, 0303ms total)
T1718 000:483 JLINK_WriteReg(R12, 0x00000000)  returns 0x00 (0000ms, 0303ms total)
T1718 000:483 JLINK_WriteReg(R13 (SP), 0x20001000)  returns 0x00 (0000ms, 0303ms total)
T1718 000:483 JLINK_WriteReg(R14, 0x20000001)  returns 0x00 (0000ms, 0303ms total)
T1718 000:483 JLINK_WriteReg(R15 (PC), 0x20000038)  returns 0x00 (0000ms, 0303ms total)
T1718 000:483 JLINK_WriteReg(XPSR, 0x01000000)  returns 0x00 (0000ms, 0303ms total)
T1718 000:483 JLINK_WriteReg(MSP, 0x20001000)  returns 0x00 (0000ms, 0303ms total)
T1718 000:483 JLINK_WriteReg(PSP, 0x20001000)  returns 0x00 (0000ms, 0303ms total)
T1718 000:483 JLINK_WriteReg(CFBP, 0x00000000)  returns 0x00 (0000ms, 0303ms total)
T1718 000:483 JLINK_SetBPEx(Addr = 0x20000000, Type = 0xFFFFFFF2) -- CPU_ReadMem(2 bytes @ 0x20000000)  returns 0x00000004 (0001ms, 0304ms total)
T1718 000:484 JLINK_Go() -- CPU_WriteMem(2 bytes @ 0x20000000) -- CPU_ReadMem(4 bytes @ 0xE0001000) (0004ms, 0308ms total)
T1718 000:488 JLINK_IsHalted() -- CPU_ReadMem(2 bytes @ 0x20000000)  returns TRUE (0005ms, 0313ms total)
T1718 000:493 JLINK_ReadReg(R15 (PC))  returns 0x20000000 (0000ms, 0308ms total)
T1718 000:493 JLINK_ClrBPEx(BPHandle = 0x00000004)  returns 0x00 (0000ms, 0308ms total)
T1718 000:493 JLINK_ReadReg(R0)  returns 0x00000000 (0000ms, 0308ms total)
T1718 000:494 JLINK_WriteMem(0x20000164, 0x0400 Bytes, ...) - Data: D8 E4 00 20 E9 01 00 08 01 50 00 08 25 46 00 08 ... -- CPU_WriteMem(1024 bytes @ 0x20000164)  returns 0x400 (0010ms, 0318ms total)
T1718 000:504 JLINK_WriteReg(R0, 0x08000000)  returns 0x00 (0000ms, 0318ms total)
T1718 000:504 JLINK_WriteReg(R1, 0x00000400)  returns 0x00 (0000ms, 0318ms total)
T1718 000:504 JLINK_WriteReg(R2, 0x20000164)  returns 0x00 (0000ms, 0318ms total)
T1718 000:504 JLINK_WriteReg(R3, 0x00000000)  returns 0x00 (0000ms, 0318ms total)
T1718 000:504 JLINK_WriteReg(R4, 0x00000000)  returns 0x00 (0000ms, 0318ms total)
T1718 000:504 JLINK_WriteReg(R5, 0x00000000)  returns 0x00 (0000ms, 0318ms total)
T1718 000:504 JLINK_WriteReg(R6, 0x00000000)  returns 0x00 (0000ms, 0318ms total)
T1718 000:505 JLINK_WriteReg(R7, 0x00000000)  returns 0x00 (0000ms, 0319ms total)
T1718 000:505 JLINK_WriteReg(R8, 0x00000000)  returns 0x00 (0000ms, 0319ms total)
T1718 000:505 JLINK_WriteReg(R9, 0x20000160)  returns 0x00 (0000ms, 0319ms total)
T1718 000:505 JLINK_WriteReg(R10, 0x00000000)  returns 0x00 (0000ms, 0319ms total)
T1718 000:505 JLINK_WriteReg(R11, 0x00000000)  returns 0x00 (0000ms, 0319ms total)
T1718 000:505 JLINK_WriteReg(R12, 0x00000000)  returns 0x00 (0000ms, 0319ms total)
T1718 000:505 JLINK_WriteReg(R13 (SP), 0x20001000)  returns 0x00 (0000ms, 0319ms total)
T1718 000:505 JLINK_WriteReg(R14, 0x20000001)  returns 0x00 (0000ms, 0319ms total)
T1718 000:505 JLINK_WriteReg(R15 (PC), 0x200000F4)  returns 0x00 (0000ms, 0319ms total)
T1718 000:505 JLINK_WriteReg(XPSR, 0x01000000)  returns 0x00 (0000ms, 0319ms total)
T1718 000:505 JLINK_WriteReg(MSP, 0x20001000)  returns 0x00 (0000ms, 0319ms total)
T1718 000:505 JLINK_WriteReg(PSP, 0x20001000)  returns 0x00 (0000ms, 0319ms total)
T1718 000:505 JLINK_WriteReg(CFBP, 0x00000000)  returns 0x00 (0000ms, 0319ms total)
T1718 000:505 JLINK_SetBPEx(Addr = 0x20000000, Type = 0xFFFFFFF2)  returns 0x00000005 (0000ms, 0319ms total)
T1718 000:505 JLINK_Go() -- CPU_ReadMem(4 bytes @ 0xE0001000) (0003ms, 0322ms total)
T1718 000:508 JLINK_IsHalted()  returns FALSE (0001ms, 0323ms total)
T1718 000:517 JLINK_IsHalted()  returns FALSE (0000ms, 0322ms total)
T1718 000:519 JLINK_IsHalted()  returns FALSE (0000ms, 0322ms total)
T1718 000:521 JLINK_IsHalted()  returns FALSE (0000ms, 0322ms total)
T1718 000:523 JLINK_IsHalted()  returns FALSE (0000ms, 0322ms total)
T1718 000:525 JLINK_IsHalted()  returns FALSE (0000ms, 0322ms total)
T1718 000:527 JLINK_IsHalted()  returns FALSE (0000ms, 0322ms total)
T1718 000:529 JLINK_IsHalted()  returns FALSE (0000ms, 0322ms total)
T1718 000:531 JLINK_IsHalted()  returns FALSE (0000ms, 0322ms total)
T1718 000:535 JLINK_IsHalted()  returns FALSE (0000ms, 0322ms total)
T1718 000:537 JLINK_IsHalted()  returns FALSE (0000ms, 0322ms total)
T1718 000:539 JLINK_IsHalted() -- CPU_ReadMem(2 bytes @ 0x20000000)  returns TRUE (0005ms, 0327ms total)
T1718 000:544 JLINK_ReadReg(R15 (PC))  returns 0x20000000 (0000ms, 0322ms total)
T1718 000:544 JLINK_ClrBPEx(BPHandle = 0x00000005)  returns 0x00 (0000ms, 0322ms total)
T1718 000:544 JLINK_ReadReg(R0)  returns 0x00000000 (0000ms, 0322ms total)
T1718 000:544 JLINK_WriteMem(0x20000164, 0x0400 Bytes, ...) - Data: 87 0E 92 0E 47 EA 81 17 42 EA 83 12 A7 FB 02 01 ... -- CPU_WriteMem(1024 bytes @ 0x20000164)  returns 0x400 (0011ms, 0333ms total)
T1718 000:555 JLINK_WriteReg(R0, 0x08000400)  returns 0x00 (0000ms, 0333ms total)
T1718 000:555 JLINK_WriteReg(R1, 0x00000400)  returns 0x00 (0000ms, 0333ms total)
T1718 000:555 JLINK_WriteReg(R2, 0x20000164)  returns 0x00 (0000ms, 0333ms total)
T1718 000:555 JLINK_WriteReg(R3, 0x00000000)  returns 0x00 (0000ms, 0333ms total)
T1718 000:555 JLINK_WriteReg(R4, 0x00000000)  returns 0x00 (0000ms, 0333ms total)
T1718 000:555 JLINK_WriteReg(R5, 0x00000000)  returns 0x00 (0000ms, 0333ms total)
T1718 000:555 JLINK_WriteReg(R6, 0x00000000)  returns 0x00 (0000ms, 0333ms total)
T1718 000:555 JLINK_WriteReg(R7, 0x00000000)  returns 0x00 (0000ms, 0333ms total)
T1718 000:555 JLINK_WriteReg(R8, 0x00000000)  returns 0x00 (0000ms, 0333ms total)
T1718 000:555 JLINK_WriteReg(R9, 0x20000160)  returns 0x00 (0000ms, 0333ms total)
T1718 000:555 JLINK_WriteReg(R10, 0x00000000)  returns 0x00 (0000ms, 0333ms total)
T1718 000:555 JLINK_WriteReg(R11, 0x00000000)  returns 0x00 (0000ms, 0333ms total)
T1718 000:555 JLINK_WriteReg(R12, 0x00000000)  returns 0x00 (0000ms, 0333ms total)
T1718 000:555 JLINK_WriteReg(R13 (SP), 0x20001000)  returns 0x00 (0000ms, 0333ms total)
T1718 000:555 JLINK_WriteReg(R14, 0x20000001)  returns 0x00 (0000ms, 0333ms total)
T1718 000:555 JLINK_WriteReg(R15 (PC), 0x200000F4)  returns 0x00 (0000ms, 0333ms total)
T1718 000:555 JLINK_WriteReg(XPSR, 0x01000000)  returns 0x00 (0000ms, 0333ms total)
T1718 000:555 JLINK_WriteReg(MSP, 0x20001000)  returns 0x00 (0000ms, 0333ms total)
T1718 000:555 JLINK_WriteReg(PSP, 0x20001000)  returns 0x00 (0000ms, 0333ms total)
T1718 000:555 JLINK_WriteReg(CFBP, 0x00000000)  returns 0x00 (0000ms, 0333ms total)
T1718 000:555 JLINK_SetBPEx(Addr = 0x20000000, Type = 0xFFFFFFF2)  returns 0x00000006 (0000ms, 0333ms total)
T1718 000:555 JLINK_Go() -- CPU_ReadMem(4 bytes @ 0xE0001000) (0003ms, 0336ms total)
T1718 000:558 JLINK_IsHalted()  returns FALSE (0000ms, 0336ms total)
T1718 000:560 JLINK_IsHalted()  returns FALSE (0000ms, 0336ms total)
T1718 000:562 JLINK_IsHalted()  returns FALSE (0000ms, 0336ms total)
T1718 000:564 JLINK_IsHalted()  returns FALSE (0000ms, 0336ms total)
T1718 000:566 JLINK_IsHalted()  returns FALSE (0000ms, 0336ms total)
T1718 000:568 JLINK_IsHalted()  returns FALSE (0000ms, 0336ms total)
T1718 000:570 JLINK_IsHalted()  returns FALSE (0000ms, 0336ms total)
T1718 000:572 JLINK_IsHalted()  returns FALSE (0000ms, 0336ms total)
T1718 000:575 JLINK_IsHalted()  returns FALSE (0000ms, 0336ms total)
T1718 000:577 JLINK_IsHalted()  returns FALSE (0000ms, 0336ms total)
T1718 000:579 JLINK_IsHalted()  returns FALSE (0000ms, 0336ms total)
T1718 000:581 JLINK_IsHalted()  returns FALSE (0000ms, 0336ms total)
T1718 000:583 JLINK_IsHalted()  returns FALSE (0000ms, 0336ms total)
T1718 000:585 JLINK_IsHalted()  returns FALSE (0000ms, 0336ms total)
T1718 000:587 JLINK_IsHalted()  returns FALSE (0000ms, 0336ms total)
T1718 000:589 JLINK_IsHalted()  returns FALSE (0000ms, 0336ms total)
T1718 000:591 JLINK_IsHalted() -- CPU_ReadMem(2 bytes @ 0x20000000)  returns TRUE (0005ms, 0341ms total)
T1718 000:596 JLINK_ReadReg(R15 (PC))  returns 0x20000000 (0000ms, 0336ms total)
T1718 000:596 JLINK_ClrBPEx(BPHandle = 0x00000006)  returns 0x00 (0000ms, 0336ms total)
T1718 000:596 JLINK_ReadReg(R0)  returns 0x00000000 (0000ms, 0336ms total)
T1718 000:597 JLINK_WriteMem(0x20000164, 0x0400 Bytes, ...) - Data: 00 45 B8 EB 02 00 A9 41 05 D2 40 46 21 46 90 46 ... -- CPU_WriteMem(1024 bytes @ 0x20000164)  returns 0x400 (0010ms, 0346ms total)
T1718 000:607 JLINK_WriteReg(R0, 0x08000800)  returns 0x00 (0000ms, 0346ms total)
T1718 000:607 JLINK_WriteReg(R1, 0x00000400)  returns 0x00 (0000ms, 0346ms total)
T1718 000:607 JLINK_WriteReg(R2, 0x20000164)  returns 0x00 (0000ms, 0346ms total)
T1718 000:607 JLINK_WriteReg(R3, 0x00000000)  returns 0x00 (0000ms, 0346ms total)
T1718 000:607 JLINK_WriteReg(R4, 0x00000000)  returns 0x00 (0000ms, 0346ms total)
T1718 000:607 JLINK_WriteReg(R5, 0x00000000)  returns 0x00 (0000ms, 0346ms total)
T1718 000:607 JLINK_WriteReg(R6, 0x00000000)  returns 0x00 (0000ms, 0346ms total)
T1718 000:607 JLINK_WriteReg(R7, 0x00000000)  returns 0x00 (0000ms, 0346ms total)
T1718 000:607 JLINK_WriteReg(R8, 0x00000000)  returns 0x00 (0000ms, 0346ms total)
T1718 000:607 JLINK_WriteReg(R9, 0x20000160)  returns 0x00 (0000ms, 0346ms total)
T1718 000:607 JLINK_WriteReg(R10, 0x00000000)  returns 0x00 (0000ms, 0346ms total)
T1718 000:607 JLINK_WriteReg(R11, 0x00000000)  returns 0x00 (0000ms, 0346ms total)
T1718 000:607 JLINK_WriteReg(R12, 0x00000000)  returns 0x00 (0000ms, 0346ms total)
T1718 000:607 JLINK_WriteReg(R13 (SP), 0x20001000)  returns 0x00 (0000ms, 0346ms total)
T1718 000:607 JLINK_WriteReg(R14, 0x20000001)  returns 0x00 (0000ms, 0346ms total)
T1718 000:607 JLINK_WriteReg(R15 (PC), 0x200000F4)  returns 0x00 (0000ms, 0346ms total)
T1718 000:607 JLINK_WriteReg(XPSR, 0x01000000)  returns 0x00 (0000ms, 0346ms total)
T1718 000:607 JLINK_WriteReg(MSP, 0x20001000)  returns 0x00 (0000ms, 0346ms total)
T1718 000:607 JLINK_WriteReg(PSP, 0x20001000)  returns 0x00 (0000ms, 0346ms total)
T1718 000:607 JLINK_WriteReg(CFBP, 0x00000000)  returns 0x00 (0000ms, 0346ms total)
T1718 000:607 JLINK_SetBPEx(Addr = 0x20000000, Type = 0xFFFFFFF2)  returns 0x00000007 (0000ms, 0346ms total)
T1718 000:607 JLINK_Go() -- CPU_ReadMem(4 bytes @ 0xE0001000) (0004ms, 0350ms total)
T1718 000:611 JLINK_IsHalted()  returns FALSE (0000ms, 0350ms total)
T1718 000:613 JLINK_IsHalted()  returns FALSE (0001ms, 0351ms total)
T1718 000:615 JLINK_IsHalted()  returns FALSE (0001ms, 0351ms total)
T1718 000:617 JLINK_IsHalted()  returns FALSE (0001ms, 0351ms total)
T1718 000:619 JLINK_IsHalted()  returns FALSE (0000ms, 0350ms total)
T1718 000:621 JLINK_IsHalted()  returns FALSE (0001ms, 0351ms total)
T1718 000:624 JLINK_IsHalted()  returns FALSE (0000ms, 0350ms total)
T1718 000:626 JLINK_IsHalted()  returns FALSE (0001ms, 0351ms total)
T1718 000:628 JLINK_IsHalted()  returns FALSE (0000ms, 0350ms total)
T1718 000:630 JLINK_IsHalted()  returns FALSE (0000ms, 0350ms total)
T1718 000:632 JLINK_IsHalted()  returns FALSE (0000ms, 0350ms total)
T1718 000:634 JLINK_IsHalted()  returns FALSE (0000ms, 0350ms total)
T1718 000:636 JLINK_IsHalted()  returns FALSE (0000ms, 0350ms total)
T1718 000:638 JLINK_IsHalted()  returns FALSE (0000ms, 0350ms total)
T1718 000:640 JLINK_IsHalted()  returns FALSE (0000ms, 0350ms total)
T1718 000:642 JLINK_IsHalted() -- CPU_ReadMem(2 bytes @ 0x20000000)  returns TRUE (0005ms, 0355ms total)
T1718 000:647 JLINK_ReadReg(R15 (PC))  returns 0x20000000 (0000ms, 0350ms total)
T1718 000:647 JLINK_ClrBPEx(BPHandle = 0x00000007)  returns 0x00 (0000ms, 0350ms total)
T1718 000:647 JLINK_ReadReg(R0)  returns 0x00000000 (0000ms, 0350ms total)
T1718 000:648 JLINK_WriteMem(0x20000164, 0x0400 Bytes, ...) - Data: FF F7 2D FB 00 24 64 20 03 23 3A 46 31 46 00 90 ... -- CPU_WriteMem(1024 bytes @ 0x20000164)  returns 0x400 (0010ms, 0360ms total)
T1718 000:658 JLINK_WriteReg(R0, 0x08000C00)  returns 0x00 (0000ms, 0360ms total)
T1718 000:658 JLINK_WriteReg(R1, 0x00000400)  returns 0x00 (0000ms, 0360ms total)
T1718 000:658 JLINK_WriteReg(R2, 0x20000164)  returns 0x00 (0000ms, 0360ms total)
T1718 000:658 JLINK_WriteReg(R3, 0x00000000)  returns 0x00 (0000ms, 0360ms total)
T1718 000:658 JLINK_WriteReg(R4, 0x00000000)  returns 0x00 (0000ms, 0360ms total)
T1718 000:658 JLINK_WriteReg(R5, 0x00000000)  returns 0x00 (0000ms, 0360ms total)
T1718 000:658 JLINK_WriteReg(R6, 0x00000000)  returns 0x00 (0000ms, 0360ms total)
T1718 000:658 JLINK_WriteReg(R7, 0x00000000)  returns 0x00 (0000ms, 0360ms total)
T1718 000:658 JLINK_WriteReg(R8, 0x00000000)  returns 0x00 (0000ms, 0360ms total)
T1718 000:658 JLINK_WriteReg(R9, 0x20000160)  returns 0x00 (0000ms, 0360ms total)
T1718 000:658 JLINK_WriteReg(R10, 0x00000000)  returns 0x00 (0001ms, 0361ms total)
T1718 000:659 JLINK_WriteReg(R11, 0x00000000)  returns 0x00 (0000ms, 0361ms total)
T1718 000:659 JLINK_WriteReg(R12, 0x00000000)  returns 0x00 (0000ms, 0361ms total)
T1718 000:659 JLINK_WriteReg(R13 (SP), 0x20001000)  returns 0x00 (0000ms, 0361ms total)
T1718 000:659 JLINK_WriteReg(R14, 0x20000001)  returns 0x00 (0000ms, 0361ms total)
T1718 000:659 JLINK_WriteReg(R15 (PC), 0x200000F4)  returns 0x00 (0000ms, 0361ms total)
T1718 000:659 JLINK_WriteReg(XPSR, 0x01000000)  returns 0x00 (0000ms, 0361ms total)
T1718 000:659 JLINK_WriteReg(MSP, 0x20001000)  returns 0x00 (0000ms, 0361ms total)
T1718 000:659 JLINK_WriteReg(PSP, 0x20001000)  returns 0x00 (0000ms, 0361ms total)
T1718 000:659 JLINK_WriteReg(CFBP, 0x00000000)  returns 0x00 (0000ms, 0361ms total)
T1718 000:659 JLINK_SetBPEx(Addr = 0x20000000, Type = 0xFFFFFFF2)  returns 0x00000008 (0000ms, 0361ms total)
T1718 000:659 JLINK_Go() -- CPU_ReadMem(4 bytes @ 0xE0001000) (0003ms, 0364ms total)
T1718 000:662 JLINK_IsHalted()  returns FALSE (0001ms, 0365ms total)
T1718 000:666 JLINK_IsHalted()  returns FALSE (0000ms, 0364ms total)
T1718 000:668 JLINK_IsHalted()  returns FALSE (0000ms, 0364ms total)
T1718 000:670 JLINK_IsHalted()  returns FALSE (0000ms, 0364ms total)
T1718 000:672 JLINK_IsHalted()  returns FALSE (0000ms, 0364ms total)
T1718 000:674 JLINK_IsHalted()  returns FALSE (0000ms, 0364ms total)
T1718 000:676 JLINK_IsHalted()  returns FALSE (0000ms, 0364ms total)
T1718 000:678 JLINK_IsHalted()  returns FALSE (0000ms, 0364ms total)
T1718 000:680 JLINK_IsHalted()  returns FALSE (0000ms, 0364ms total)
T1718 000:682 JLINK_IsHalted()  returns FALSE (0000ms, 0364ms total)
T1718 000:684 JLINK_IsHalted()  returns FALSE (0000ms, 0364ms total)
T1718 000:686 JLINK_IsHalted()  returns FALSE (0000ms, 0364ms total)
T1718 000:688 JLINK_IsHalted()  returns FALSE (0000ms, 0364ms total)
T1718 000:690 JLINK_IsHalted()  returns FALSE (0000ms, 0364ms total)
T1718 000:692 JLINK_IsHalted()  returns FALSE (0000ms, 0364ms total)
T1718 000:694 JLINK_IsHalted() -- CPU_ReadMem(2 bytes @ 0x20000000)  returns TRUE (0005ms, 0369ms total)
T1718 000:699 JLINK_ReadReg(R15 (PC))  returns 0x20000000 (0000ms, 0364ms total)
T1718 000:699 JLINK_ClrBPEx(BPHandle = 0x00000008)  returns 0x00 (0000ms, 0364ms total)
T1718 000:699 JLINK_ReadReg(R0)  returns 0x00000000 (0000ms, 0364ms total)
T1718 000:699 JLINK_WriteMem(0x20000164, 0x0400 Bytes, ...) - Data: 3F 20 FF F7 9D FF FF F7 29 FF 2B 48 40 78 00 F0 ... -- CPU_WriteMem(1024 bytes @ 0x20000164)  returns 0x400 (0011ms, 0375ms total)
T1718 000:710 JLINK_WriteReg(R0, 0x08001000)  returns 0x00 (0000ms, 0375ms total)
T1718 000:710 JLINK_WriteReg(R1, 0x00000400)  returns 0x00 (0000ms, 0375ms total)
T1718 000:710 JLINK_WriteReg(R2, 0x20000164)  returns 0x00 (0000ms, 0375ms total)
T1718 000:710 JLINK_WriteReg(R3, 0x00000000)  returns 0x00 (0000ms, 0375ms total)
T1718 000:710 JLINK_WriteReg(R4, 0x00000000)  returns 0x00 (0000ms, 0375ms total)
T1718 000:710 JLINK_WriteReg(R5, 0x00000000)  returns 0x00 (0000ms, 0375ms total)
T1718 000:710 JLINK_WriteReg(R6, 0x00000000)  returns 0x00 (0000ms, 0375ms total)
T1718 000:710 JLINK_WriteReg(R7, 0x00000000)  returns 0x00 (0000ms, 0375ms total)
T1718 000:710 JLINK_WriteReg(R8, 0x00000000)  returns 0x00 (0000ms, 0375ms total)
T1718 000:710 JLINK_WriteReg(R9, 0x20000160)  returns 0x00 (0000ms, 0375ms total)
T1718 000:710 JLINK_WriteReg(R10, 0x00000000)  returns 0x00 (0000ms, 0375ms total)
T1718 000:710 JLINK_WriteReg(R11, 0x00000000)  returns 0x00 (0000ms, 0375ms total)
T1718 000:710 JLINK_WriteReg(R12, 0x00000000)  returns 0x00 (0000ms, 0375ms total)
T1718 000:710 JLINK_WriteReg(R13 (SP), 0x20001000)  returns 0x00 (0000ms, 0375ms total)
T1718 000:710 JLINK_WriteReg(R14, 0x20000001)  returns 0x00 (0000ms, 0375ms total)
T1718 000:710 JLINK_WriteReg(R15 (PC), 0x200000F4)  returns 0x00 (0000ms, 0375ms total)
T1718 000:710 JLINK_WriteReg(XPSR, 0x01000000)  returns 0x00 (0000ms, 0375ms total)
T1718 000:710 JLINK_WriteReg(MSP, 0x20001000)  returns 0x00 (0000ms, 0375ms total)
T1718 000:710 JLINK_WriteReg(PSP, 0x20001000)  returns 0x00 (0000ms, 0375ms total)
T1718 000:710 JLINK_WriteReg(CFBP, 0x00000000)  returns 0x00 (0000ms, 0375ms total)
T1718 000:710 JLINK_SetBPEx(Addr = 0x20000000, Type = 0xFFFFFFF2)  returns 0x00000009 (0000ms, 0375ms total)
T1718 000:710 JLINK_Go() -- CPU_ReadMem(4 bytes @ 0xE0001000) (0003ms, 0378ms total)
T1718 000:713 JLINK_IsHalted()  returns FALSE (0001ms, 0379ms total)
T1718 000:721 JLINK_IsHalted()  returns FALSE (0000ms, 0378ms total)
T1718 000:723 JLINK_IsHalted()  returns FALSE (0000ms, 0378ms total)
T1718 000:725 JLINK_IsHalted()  returns FALSE (0000ms, 0378ms total)
T1718 000:728 JLINK_IsHalted()  returns FALSE (0000ms, 0378ms total)
T1718 000:731 JLINK_IsHalted()  returns FALSE (0000ms, 0378ms total)
T1718 000:734 JLINK_IsHalted()  returns FALSE (0000ms, 0378ms total)
T1718 000:737 JLINK_IsHalted()  returns FALSE (0000ms, 0378ms total)
T1718 000:739 JLINK_IsHalted()  returns FALSE (0000ms, 0378ms total)
T1718 000:741 JLINK_IsHalted()  returns FALSE (0000ms, 0378ms total)
T1718 000:742 JLINK_IsHalted()  returns FALSE (0000ms, 0378ms total)
T1718 000:745 JLINK_IsHalted() -- CPU_ReadMem(2 bytes @ 0x20000000)  returns TRUE (0006ms, 0384ms total)
T1718 000:751 JLINK_ReadReg(R15 (PC))  returns 0x20000000 (0000ms, 0378ms total)
T1718 000:751 JLINK_ClrBPEx(BPHandle = 0x00000009)  returns 0x00 (0000ms, 0378ms total)
T1718 000:751 JLINK_ReadReg(R0)  returns 0x00000000 (0000ms, 0378ms total)
T1718 000:752 JLINK_WriteMem(0x20000164, 0x0400 Bytes, ...) - Data: 20 B9 CC 48 00 88 08 B1 0B F0 06 F9 E3 48 00 78 ... -- CPU_WriteMem(1024 bytes @ 0x20000164)  returns 0x400 (0011ms, 0389ms total)
T1718 000:763 JLINK_WriteReg(R0, 0x08001400)  returns 0x00 (0000ms, 0389ms total)
T1718 000:763 JLINK_WriteReg(R1, 0x00000400)  returns 0x00 (0000ms, 0389ms total)
T1718 000:763 JLINK_WriteReg(R2, 0x20000164)  returns 0x00 (0000ms, 0389ms total)
T1718 000:763 JLINK_WriteReg(R3, 0x00000000)  returns 0x00 (0000ms, 0389ms total)
T1718 000:763 JLINK_WriteReg(R4, 0x00000000)  returns 0x00 (0000ms, 0389ms total)
T1718 000:763 JLINK_WriteReg(R5, 0x00000000)  returns 0x00 (0000ms, 0389ms total)
T1718 000:763 JLINK_WriteReg(R6, 0x00000000)  returns 0x00 (0000ms, 0389ms total)
T1718 000:763 JLINK_WriteReg(R7, 0x00000000)  returns 0x00 (0000ms, 0389ms total)
T1718 000:763 JLINK_WriteReg(R8, 0x00000000)  returns 0x00 (0000ms, 0389ms total)
T1718 000:763 JLINK_WriteReg(R9, 0x20000160)  returns 0x00 (0000ms, 0389ms total)
T1718 000:763 JLINK_WriteReg(R10, 0x00000000)  returns 0x00 (0000ms, 0389ms total)
T1718 000:763 JLINK_WriteReg(R11, 0x00000000)  returns 0x00 (0000ms, 0389ms total)
T1718 000:763 JLINK_WriteReg(R12, 0x00000000)  returns 0x00 (0000ms, 0389ms total)
T1718 000:763 JLINK_WriteReg(R13 (SP), 0x20001000)  returns 0x00 (0000ms, 0389ms total)
T1718 000:763 JLINK_WriteReg(R14, 0x20000001)  returns 0x00 (0000ms, 0389ms total)
T1718 000:763 JLINK_WriteReg(R15 (PC), 0x200000F4)  returns 0x00 (0000ms, 0389ms total)
T1718 000:763 JLINK_WriteReg(XPSR, 0x01000000)  returns 0x00 (0000ms, 0389ms total)
T1718 000:763 JLINK_WriteReg(MSP, 0x20001000)  returns 0x00 (0000ms, 0389ms total)
T1718 000:763 JLINK_WriteReg(PSP, 0x20001000)  returns 0x00 (0000ms, 0389ms total)
T1718 000:763 JLINK_WriteReg(CFBP, 0x00000000)  returns 0x00 (0000ms, 0389ms total)
T1718 000:763 JLINK_SetBPEx(Addr = 0x20000000, Type = 0xFFFFFFF2)  returns 0x0000000A (0001ms, 0390ms total)
T1718 000:764 JLINK_Go() -- CPU_ReadMem(4 bytes @ 0xE0001000) (0003ms, 0393ms total)
T1718 000:767 JLINK_IsHalted()  returns FALSE (0001ms, 0394ms total)
T1718 000:776 JLINK_IsHalted()  returns FALSE (0000ms, 0393ms total)
T1718 000:778 JLINK_IsHalted()  returns FALSE (0000ms, 0393ms total)
T1718 000:780 JLINK_IsHalted()  returns FALSE (0001ms, 0394ms total)
T1718 000:783 JLINK_IsHalted()  returns FALSE (0001ms, 0394ms total)
T1718 000:786 JLINK_IsHalted()  returns FALSE (0000ms, 0393ms total)
T1718 000:791 JLINK_IsHalted()  returns FALSE (0001ms, 0394ms total)
T1718 000:794 JLINK_IsHalted()  returns FALSE (0001ms, 0394ms total)
T1718 000:800 JLINK_IsHalted() -- CPU_ReadMem(2 bytes @ 0x20000000)  returns TRUE (0005ms, 0398ms total)
T1718 000:806 JLINK_ReadReg(R15 (PC))  returns 0x20000000 (0000ms, 0393ms total)
T1718 000:806 JLINK_ClrBPEx(BPHandle = 0x0000000A)  returns 0x00 (0000ms, 0393ms total)
T1718 000:806 JLINK_ReadReg(R0)  returns 0x00000000 (0000ms, 0393ms total)
T1718 000:807 JLINK_WriteMem(0x20000164, 0x0400 Bytes, ...) - Data: 4C 05 00 20 78 04 00 20 7A 04 00 20 06 05 00 20 ... -- CPU_WriteMem(1024 bytes @ 0x20000164)  returns 0x400 (0011ms, 0404ms total)
T1718 000:818 JLINK_WriteReg(R0, 0x08001800)  returns 0x00 (0000ms, 0404ms total)
T1718 000:818 JLINK_WriteReg(R1, 0x00000400)  returns 0x00 (0000ms, 0404ms total)
T1718 000:818 JLINK_WriteReg(R2, 0x20000164)  returns 0x00 (0000ms, 0404ms total)
T1718 000:818 JLINK_WriteReg(R3, 0x00000000)  returns 0x00 (0000ms, 0404ms total)
T1718 000:818 JLINK_WriteReg(R4, 0x00000000)  returns 0x00 (0000ms, 0404ms total)
T1718 000:818 JLINK_WriteReg(R5, 0x00000000)  returns 0x00 (0000ms, 0404ms total)
T1718 000:818 JLINK_WriteReg(R6, 0x00000000)  returns 0x00 (0000ms, 0404ms total)
T1718 000:818 JLINK_WriteReg(R7, 0x00000000)  returns 0x00 (0000ms, 0404ms total)
T1718 000:818 JLINK_WriteReg(R8, 0x00000000)  returns 0x00 (0000ms, 0404ms total)
T1718 000:818 JLINK_WriteReg(R9, 0x20000160)  returns 0x00 (0000ms, 0404ms total)
T1718 000:818 JLINK_WriteReg(R10, 0x00000000)  returns 0x00 (0000ms, 0404ms total)
T1718 000:818 JLINK_WriteReg(R11, 0x00000000)  returns 0x00 (0000ms, 0404ms total)
T1718 000:818 JLINK_WriteReg(R12, 0x00000000)  returns 0x00 (0000ms, 0404ms total)
T1718 000:818 JLINK_WriteReg(R13 (SP), 0x20001000)  returns 0x00 (0000ms, 0404ms total)
T1718 000:818 JLINK_WriteReg(R14, 0x20000001)  returns 0x00 (0000ms, 0404ms total)
T1718 000:818 JLINK_WriteReg(R15 (PC), 0x200000F4)  returns 0x00 (0000ms, 0404ms total)
T1718 000:818 JLINK_WriteReg(XPSR, 0x01000000)  returns 0x00 (0000ms, 0404ms total)
T1718 000:818 JLINK_WriteReg(MSP, 0x20001000)  returns 0x00 (0000ms, 0404ms total)
T1718 000:818 JLINK_WriteReg(PSP, 0x20001000)  returns 0x00 (0000ms, 0404ms total)
T1718 000:818 JLINK_WriteReg(CFBP, 0x00000000)  returns 0x00 (0000ms, 0404ms total)
T1718 000:818 JLINK_SetBPEx(Addr = 0x20000000, Type = 0xFFFFFFF2)  returns 0x0000000B (0000ms, 0404ms total)
T1718 000:818 JLINK_Go() -- CPU_ReadMem(4 bytes @ 0xE0001000) (0004ms, 0408ms total)
T1718 000:822 JLINK_IsHalted()  returns FALSE (0001ms, 0409ms total)
T1718 000:828 JLINK_IsHalted()  returns FALSE (0001ms, 0409ms total)
T1718 000:831 JLINK_IsHalted()  returns FALSE (0001ms, 0409ms total)
T1718 000:834 JLINK_IsHalted()  returns FALSE (0000ms, 0408ms total)
T1718 000:836 JLINK_IsHalted()  returns FALSE (0000ms, 0408ms total)
T1718 000:838 JLINK_IsHalted()  returns FALSE (0000ms, 0408ms total)
T1718 000:840 JLINK_IsHalted()  returns FALSE (0000ms, 0408ms total)
T1718 000:842 JLINK_IsHalted()  returns FALSE (0000ms, 0408ms total)
T1718 000:844 JLINK_IsHalted()  returns FALSE (0000ms, 0408ms total)
T1718 000:846 JLINK_IsHalted()  returns FALSE (0001ms, 0409ms total)
T1718 000:848 JLINK_IsHalted()  returns FALSE (0000ms, 0408ms total)
T1718 000:850 JLINK_IsHalted()  returns FALSE (0000ms, 0408ms total)
T1718 000:852 JLINK_IsHalted()  returns FALSE (0001ms, 0409ms total)
T1718 000:855 JLINK_IsHalted() -- CPU_ReadMem(2 bytes @ 0x20000000)  returns TRUE (0006ms, 0414ms total)
T1718 000:861 JLINK_ReadReg(R15 (PC))  returns 0x20000000 (0000ms, 0408ms total)
T1718 000:861 JLINK_ClrBPEx(BPHandle = 0x0000000B)  returns 0x00 (0000ms, 0408ms total)
T1718 000:861 JLINK_ReadReg(R0)  returns 0x00000000 (0000ms, 0408ms total)
T1718 000:862 JLINK_WriteMem(0x20000164, 0x0400 Bytes, ...) - Data: 1F 48 87 42 07 D3 1F A0 05 F0 2A FF FF F7 26 F9 ... -- CPU_WriteMem(1024 bytes @ 0x20000164)  returns 0x400 (0011ms, 0419ms total)
T1718 000:873 JLINK_WriteReg(R0, 0x08001C00)  returns 0x00 (0000ms, 0419ms total)
T1718 000:873 JLINK_WriteReg(R1, 0x00000400)  returns 0x00 (0000ms, 0419ms total)
T1718 000:873 JLINK_WriteReg(R2, 0x20000164)  returns 0x00 (0000ms, 0419ms total)
T1718 000:873 JLINK_WriteReg(R3, 0x00000000)  returns 0x00 (0000ms, 0419ms total)
T1718 000:873 JLINK_WriteReg(R4, 0x00000000)  returns 0x00 (0000ms, 0419ms total)
T1718 000:873 JLINK_WriteReg(R5, 0x00000000)  returns 0x00 (0000ms, 0419ms total)
T1718 000:873 JLINK_WriteReg(R6, 0x00000000)  returns 0x00 (0000ms, 0419ms total)
T1718 000:873 JLINK_WriteReg(R7, 0x00000000)  returns 0x00 (0000ms, 0419ms total)
T1718 000:873 JLINK_WriteReg(R8, 0x00000000)  returns 0x00 (0000ms, 0419ms total)
T1718 000:873 JLINK_WriteReg(R9, 0x20000160)  returns 0x00 (0000ms, 0419ms total)
T1718 000:873 JLINK_WriteReg(R10, 0x00000000)  returns 0x00 (0000ms, 0419ms total)
T1718 000:873 JLINK_WriteReg(R11, 0x00000000)  returns 0x00 (0000ms, 0419ms total)
T1718 000:873 JLINK_WriteReg(R12, 0x00000000)  returns 0x00 (0000ms, 0419ms total)
T1718 000:873 JLINK_WriteReg(R13 (SP), 0x20001000)  returns 0x00 (0000ms, 0419ms total)
T1718 000:873 JLINK_WriteReg(R14, 0x20000001)  returns 0x00 (0000ms, 0419ms total)
T1718 000:873 JLINK_WriteReg(R15 (PC), 0x200000F4)  returns 0x00 (0000ms, 0419ms total)
T1718 000:873 JLINK_WriteReg(XPSR, 0x01000000)  returns 0x00 (0000ms, 0419ms total)
T1718 000:873 JLINK_WriteReg(MSP, 0x20001000)  returns 0x00 (0000ms, 0419ms total)
T1718 000:873 JLINK_WriteReg(PSP, 0x20001000)  returns 0x00 (0000ms, 0419ms total)
T1718 000:873 JLINK_WriteReg(CFBP, 0x00000000)  returns 0x00 (0000ms, 0419ms total)
T1718 000:873 JLINK_SetBPEx(Addr = 0x20000000, Type = 0xFFFFFFF2)  returns 0x0000000C (0000ms, 0419ms total)
T1718 000:874 JLINK_Go() -- CPU_ReadMem(4 bytes @ 0xE0001000) (0003ms, 0423ms total)
T1718 000:877 JLINK_IsHalted()  returns FALSE (0001ms, 0424ms total)
T1718 000:882 JLINK_IsHalted()  returns FALSE (0000ms, 0423ms total)
T1718 000:884 JLINK_IsHalted()  returns FALSE (0000ms, 0423ms total)
T1718 000:887 JLINK_IsHalted()  returns FALSE (0001ms, 0424ms total)
T1718 000:889 JLINK_IsHalted()  returns FALSE (0000ms, 0423ms total)
T1718 000:891 JLINK_IsHalted()  returns FALSE (0000ms, 0423ms total)
T1718 000:893 JLINK_IsHalted()  returns FALSE (0000ms, 0423ms total)
T1718 000:895 JLINK_IsHalted()  returns FALSE (0000ms, 0423ms total)
T1718 000:897 JLINK_IsHalted()  returns FALSE (0000ms, 0423ms total)
T1718 000:899 JLINK_IsHalted()  returns FALSE (0000ms, 0424ms total)
T1718 000:901 JLINK_IsHalted()  returns FALSE (0000ms, 0424ms total)
T1718 000:903 JLINK_IsHalted()  returns FALSE (0000ms, 0424ms total)
T1718 000:905 JLINK_IsHalted()  returns FALSE (0000ms, 0424ms total)
T1718 000:907 JLINK_IsHalted()  returns FALSE (0000ms, 0424ms total)
T1718 000:909 JLINK_IsHalted() -- CPU_ReadMem(2 bytes @ 0x20000000)  returns TRUE (0006ms, 0430ms total)
T1718 000:915 JLINK_ReadReg(R15 (PC))  returns 0x20000000 (0000ms, 0424ms total)
T1718 000:915 JLINK_ClrBPEx(BPHandle = 0x0000000C)  returns 0x00 (0000ms, 0424ms total)
T1718 000:915 JLINK_ReadReg(R0)  returns 0x00000000 (0000ms, 0424ms total)
T1718 000:916 JLINK_WriteMem(0x20000164, 0x0400 Bytes, ...) - Data: 81 AE BD E8 F8 87 00 00 00 00 11 10 00 10 02 40 ... -- CPU_WriteMem(1024 bytes @ 0x20000164)  returns 0x400 (0010ms, 0434ms total)
T1718 000:926 JLINK_WriteReg(R0, 0x08002000)  returns 0x00 (0000ms, 0434ms total)
T1718 000:926 JLINK_WriteReg(R1, 0x00000400)  returns 0x00 (0000ms, 0434ms total)
T1718 000:926 JLINK_WriteReg(R2, 0x20000164)  returns 0x00 (0000ms, 0434ms total)
T1718 000:926 JLINK_WriteReg(R3, 0x00000000)  returns 0x00 (0000ms, 0434ms total)
T1718 000:926 JLINK_WriteReg(R4, 0x00000000)  returns 0x00 (0000ms, 0434ms total)
T1718 000:926 JLINK_WriteReg(R5, 0x00000000)  returns 0x00 (0000ms, 0434ms total)
T1718 000:926 JLINK_WriteReg(R6, 0x00000000)  returns 0x00 (0000ms, 0434ms total)
T1718 000:927 JLINK_WriteReg(R7, 0x00000000)  returns 0x00 (0000ms, 0434ms total)
T1718 000:927 JLINK_WriteReg(R8, 0x00000000)  returns 0x00 (0000ms, 0434ms total)
T1718 000:927 JLINK_WriteReg(R9, 0x20000160)  returns 0x00 (0000ms, 0434ms total)
T1718 000:927 JLINK_WriteReg(R10, 0x00000000)  returns 0x00 (0000ms, 0434ms total)
T1718 000:927 JLINK_WriteReg(R11, 0x00000000)  returns 0x00 (0000ms, 0434ms total)
T1718 000:927 JLINK_WriteReg(R12, 0x00000000)  returns 0x00 (0000ms, 0434ms total)
T1718 000:927 JLINK_WriteReg(R13 (SP), 0x20001000)  returns 0x00 (0000ms, 0434ms total)
T1718 000:927 JLINK_WriteReg(R14, 0x20000001)  returns 0x00 (0000ms, 0434ms total)
T1718 000:927 JLINK_WriteReg(R15 (PC), 0x200000F4)  returns 0x00 (0000ms, 0434ms total)
T1718 000:927 JLINK_WriteReg(XPSR, 0x01000000)  returns 0x00 (0000ms, 0434ms total)
T1718 000:927 JLINK_WriteReg(MSP, 0x20001000)  returns 0x00 (0000ms, 0434ms total)
T1718 000:927 JLINK_WriteReg(PSP, 0x20001000)  returns 0x00 (0000ms, 0434ms total)
T1718 000:927 JLINK_WriteReg(CFBP, 0x00000000)  returns 0x00 (0000ms, 0434ms total)
T1718 000:927 JLINK_SetBPEx(Addr = 0x20000000, Type = 0xFFFFFFF2)  returns 0x0000000D (0000ms, 0434ms total)
T1718 000:927 JLINK_Go() -- CPU_ReadMem(4 bytes @ 0xE0001000) (0003ms, 0437ms total)
T1718 000:930 JLINK_IsHalted()  returns FALSE (0001ms, 0438ms total)
T1718 000:933 JLINK_IsHalted()  returns FALSE (0000ms, 0437ms total)
T1718 000:935 JLINK_IsHalted()  returns FALSE (0001ms, 0438ms total)
T1718 000:938 JLINK_IsHalted()  returns FALSE (0000ms, 0437ms total)
T1718 000:940 JLINK_IsHalted()  returns FALSE (0000ms, 0437ms total)
T1718 000:942 JLINK_IsHalted()  returns FALSE (0000ms, 0437ms total)
T1718 000:944 JLINK_IsHalted()  returns FALSE (0000ms, 0437ms total)
T1718 000:946 JLINK_IsHalted()  returns FALSE (0000ms, 0437ms total)
T1718 000:948 JLINK_IsHalted()  returns FALSE (0000ms, 0437ms total)
T1718 000:950 JLINK_IsHalted()  returns FALSE (0000ms, 0437ms total)
T1718 000:952 JLINK_IsHalted()  returns FALSE (0000ms, 0437ms total)
T1718 000:954 JLINK_IsHalted()  returns FALSE (0000ms, 0437ms total)
T1718 000:956 JLINK_IsHalted()  returns FALSE (0001ms, 0438ms total)
T1718 000:958 JLINK_IsHalted()  returns FALSE (0001ms, 0438ms total)
T1718 000:960 JLINK_IsHalted()  returns FALSE (0000ms, 0437ms total)
T1718 000:962 JLINK_IsHalted() -- CPU_ReadMem(2 bytes @ 0x20000000)  returns TRUE (0005ms, 0442ms total)
T1718 000:967 JLINK_ReadReg(R15 (PC))  returns 0x20000000 (0000ms, 0437ms total)
T1718 000:967 JLINK_ClrBPEx(BPHandle = 0x0000000D)  returns 0x00 (0000ms, 0437ms total)
T1718 000:967 JLINK_ReadReg(R0)  returns 0x00000000 (0000ms, 0437ms total)
T1718 000:968 JLINK_WriteMem(0x20000164, 0x0400 Bytes, ...) - Data: 01 E0 4F F0 00 08 14 E0 12 E0 00 F0 6F FA 01 46 ... -- CPU_WriteMem(1024 bytes @ 0x20000164)  returns 0x400 (0011ms, 0448ms total)
T1718 000:979 JLINK_WriteReg(R0, 0x08002400)  returns 0x00 (0000ms, 0448ms total)
T1718 000:979 JLINK_WriteReg(R1, 0x00000400)  returns 0x00 (0000ms, 0448ms total)
T1718 000:979 JLINK_WriteReg(R2, 0x20000164)  returns 0x00 (0000ms, 0448ms total)
T1718 000:979 JLINK_WriteReg(R3, 0x00000000)  returns 0x00 (0000ms, 0448ms total)
T1718 000:979 JLINK_WriteReg(R4, 0x00000000)  returns 0x00 (0000ms, 0448ms total)
T1718 000:979 JLINK_WriteReg(R5, 0x00000000)  returns 0x00 (0000ms, 0448ms total)
T1718 000:979 JLINK_WriteReg(R6, 0x00000000)  returns 0x00 (0000ms, 0448ms total)
T1718 000:979 JLINK_WriteReg(R7, 0x00000000)  returns 0x00 (0000ms, 0448ms total)
T1718 000:979 JLINK_WriteReg(R8, 0x00000000)  returns 0x00 (0000ms, 0448ms total)
T1718 000:979 JLINK_WriteReg(R9, 0x20000160)  returns 0x00 (0000ms, 0448ms total)
T1718 000:979 JLINK_WriteReg(R10, 0x00000000)  returns 0x00 (0000ms, 0448ms total)
T1718 000:979 JLINK_WriteReg(R11, 0x00000000)  returns 0x00 (0000ms, 0448ms total)
T1718 000:979 JLINK_WriteReg(R12, 0x00000000)  returns 0x00 (0000ms, 0448ms total)
T1718 000:979 JLINK_WriteReg(R13 (SP), 0x20001000)  returns 0x00 (0000ms, 0448ms total)
T1718 000:979 JLINK_WriteReg(R14, 0x20000001)  returns 0x00 (0000ms, 0448ms total)
T1718 000:979 JLINK_WriteReg(R15 (PC), 0x200000F4)  returns 0x00 (0000ms, 0448ms total)
T1718 000:979 JLINK_WriteReg(XPSR, 0x01000000)  returns 0x00 (0000ms, 0448ms total)
T1718 000:979 JLINK_WriteReg(MSP, 0x20001000)  returns 0x00 (0000ms, 0448ms total)
